PAC3200通讯说明
###总电度表：
地址：5
波特率：9600
协议：Modbus
接线方式：3P4W，不平衡负载
电流变比：待定

红色为采集的数据，float类型，占四字节，遵守IEEE标准
浅蓝色为CRC校验
因为没有接负载和三相电，我们采集到的值一般是0.0
1）获取相电压UL1-N（单位：V）
TX：05 04 00 01 00 02 21 8F 
RX：05 04 04 00 00 00 00 BE 44 
2）获取相电压UL2-N（单位：V）
TX：05 04 00 03 00 02 80 4F 
RX：05 04 04 00 00 00 00 BE 44 
3）获取相电压UL3-N（单位：V）
TX：05 04 00 05 00 02 60 4E 
RX：05 04 04 00 00 00 00 BE 44 
4）获取a相电流（单位：A）
TX：05 04 00 0D 00 02 E1 8C 
RX：05 04 04 00 00 00 00 BE 44 
5）获取b相电流（单位：A）
TX：05 04 00 0F 00 02 40 4C 
RX：05 04 04 00 00 00 00 BE 44 
6）获取c相电流（单位：A）
TX：05 04 00 11 00 02 20 4A 
RX：05 04 04 00 00 00 00 BE 44 
7）获取总有功功率（单位：W）
TX：05 04 00 41 00 02 20 5B 
RX：05 04 04 00 00 00 00 BE 44 
8）获取频率（单位：A）
TX：05 04 00 37 00 02 C1 81 
RX：05 04 04 FF FF FF FF BF D0 
9）获取正向有功电能（单位：Wh）
TX：05 04 03 21 00 02 20 01  
RX：05 04 04 00 00 00 00 BE 44 

###压缩机电表：
地址：6
波特率：9600
协议：Modbus
接线方式：3P3WB，平衡负载
电流变比：待定

（1）获取线电压Uab
TX:06 04 00 07 00 02 C1 BD 
RX:06 04 04 00 00 00 00 8D 44 
（2）获取线电压Ubc
TX:06 04 00 09 00 02 A0 7E 
RX:06 04 04 00 00 00 00 8D 44 
（3）获取线电压Uca
TX:06 04 00 0B 00 02 01 BE 
RX:06 04 04 00 00 00 00 8D 44 
（4）获取a相电流
TX:06 04 00 0D 00 02 E1 BF 
RX:06 04 04 00 00 00 00 8D 44 
（5）获取b相电流
TX:06 04 00 0F 00 02 40 7F 
RX:06 04 04 00 00 00 00 8D 44 
（6）获取c相电流
TX:06 04 00 11 00 02 20 79 
RX:06 04 04 00 00 00 00 8D 44 
（7）获取频率（单位：HZ）
  TX:06 04 00 37 00 02 C1 B2 
RX:06 04 04 FF FF FF FF 8C D0 
（8）获取正向有功电能（单位：Wh）
TX:06 04 03 21 00 02 20 32 
RX:06 04 04 00 00 00 00 8D 44
新增指令：
（9）获取a相相电压
TX:06 04 00 01 00 02 21 BC 
RX:06 04 04 00 00 00 00 8D 44
（10）获取b相相电压
TX:06 04 00 03 00 02 80 7C 
RX:06 04 04 00 00 00 00 8D 44 
（11）获取c相相电压
TX:06 04 00 05 00 02 60 7D 
RX:06 04 04 00 00 00 00 8D 44 
（12）获取a相电压畸变率
TX:06 04 00 2B 00 02 00 74 
RX:06 04 04 FF FF FF FF 8C D0
（13）获取a相电流畸变率
TX:06 04 00 31 00 02 21 B3 
RX:06 04 04 FF FF FF FF 8C D0 
（14）获取总视在功率
TX:06 04 00 3F 00 02 40 70 
RX:06 04 04 00 00 00 00 8D 44 
（15）获取总有功功率
TX:06 04 00 41 00 02 20 68 
RX:06 04 04 00 00 00 00 8D 44 
（16）获取总无功功率
TX:06 04 00 43 00 02 81 A8 
RX:06 04 04 00 00 00 00 8D 44 
（17）获取总功率因数
TX:06 04 00 41 00 02 20 68 
RX:06 04 04 00 00 00 00 8D 44  
（18）获取电压幅值不平衡度
TX:06 04 00 47 00 02 C0 69  
RX:06 04 04 00 00 00 00 8D 44 
（19）获取电流幅值不平衡度
TX:06 04 00 49 00 02 A1 AA  
RX:06 04 04 00 00 00 00 8D 44 





###单向电度表：
地址：7
波特率：9600
协议：Modbus
接线方式：1P2W
电流变比：待定

（1）获取相电压UL1-N（单位：V）
TX:07 04 00 01 00 02 20 6D 
RX:07 04 04 00 00 00 00 9D 84 
（2）获取相电流（单位：A）
TX:07 04 00 0D 00 02 E0 6E 
RX:07 04 04 00 00 00 00 9D 84  
（3）获取总有功功率（单位：W）
TX:07 04 00 41 00 02 21 B9 
RX:07 04 04 00 00 00 00 9D 84 
（4）获取正向有功电能（单位：W）
TX:07 04 03 21 00 02 21 E3 
RX:07 04 04 00 00 00 00 9D 84 

###增加
(1){0x04, 0x03, 0x07, 0xD4, 0x00, 0x01, 0xC5, 0x13}//PID仪表获取占空比指令
TX:04 03 07 D4 00 01 C5 13 
RX:04 03 02 02 25 B4 FF 

(2){0x06, 0x04, 0x00, 0x01, 0x00, 0x02, 0x21,0xBC}//获取a相相电压
TX:06 04 00 01 00 02 21 BC 
RX:06 04 04 00 00 00 00 8D 44

(3){0x06, 0x04, 0x00, 0x03, 0x00, 0x02, 0x80, 0x7C}//获取b相相电压
TX:06 04 00 03 00 02 80 7C 
RX:06 04 04 00 00 00 00 8D 44 

(4){0x06, 0x04, 0x00, 0x05, 0x00, 0x02, 0x60, 0x7D}//获取c相相电压
TX:06 04 00 05 00 02 60 7D 
RX:06 04 04 00 00 00 00 8D 44 

(5){0x06, 0x04, 0x00, 0x2B, 0x00, 0x02, 0x00, 0x74}//获取a相电压畸变率
TX:06 04 00 2B 00 02 00 74 
RX:06 04 04 FF FF FF FF 8C D0
（13）获取a相电流畸变率
TX:06 04 00 31 00 02 21 B3 


(6){0x06, 0x04, 0x00, 0x3F, 0x00, 0x02, 0x40, 0x70}//获取总视在功率
TX:06 04 00 3F 00 02 40 70 
RX:06 04 04 00 00 00 00 8D 44 

(7){0x06, 0x04, 0x00, 0x41, 0x00, 0x02, 0x20, 0x68}//获取总有功功率
TX:06 04 00 41 00 02 20 68 
RX:06 04 04 00 00 00 00 8D 44 

(8){0x06, 0x04, 0x00, 0x43, 0x00, 0x02, 0x81, 0xA8}//获取总无功功率
TX:06 04 00 43 00 02 81 A8 
RX:06 04 04 00 00 00 00 8D 44 

(9){0x06, 0x04, 0x00, 0x41, 0x00, 0x02, 0x20, 0x68}//获取总功率因数
TX:06 04 00 41 00 02 20 68 
RX:06 04 04 00 00 00 00 8D 44 

(10){0x06, 0x04, 0x00, 0x47, 0x00, 0x02, 0xC0, 0x69}//获取电压幅值不平衡度
TX:06 04 00 47 00 02 C0 69  
RX:06 04 04 00 00 00 00 8D 44 

(11){0x06, 0x04, 0x00, 0x49, 0x00, 0x02, 0xA1, 0xAA}//获取电流幅值不平衡度
TX:06 04 00 49 00 02 A1 AA  
RX:06 04 04 00 00 00 00 8D 44 

(12){0x06, 0x06, 0xEA, 0x64, 0x00, 0x00, 0xFD, 0xBA}//清空电能值
TX:06 06 EA 64 00 00 FD BA 
RX:06 06 EA 64 00 00 FD BA 